T5F00 000:009.719   SEGGER J-Link V7.58b Log File
T5F00 000:009.888   DLL Compiled: Nov 16 2021 15:00:10
T5F00 000:009.901   Logging started @ 2022-03-19 17:27
T5F00 000:009.912 - 9.917ms
T5F00 000:009.930 JLINK_SetWarnOutHandler(...)
T5F00 000:009.943 - 0.019ms
T5F00 000:009.957 JLINK_OpenEx(...)
T5F00 000:012.333   Firmware: J-Link OB-SAM3U128-V2-NordicSemi compiled Feb  2 2021 16:47:20
T5F00 000:012.648   Firmware: J-Link OB-SAM3U128-V2-NordicSemi compiled Feb  2 2021 16:47:20
T5F00 000:014.107   Hardware: V1.00
T5F00 000:014.135   S/N: 682252446
T5F00 000:014.152   OEM: SEGGER
T5F00 000:014.182   Feature(s): RDI, FlashBP, FlashDL, JFlash, GDB
T5F00 000:015.191   TELNET listener socket opened on port 19021
T5F00 000:015.434   WEBSRV WEBSRV_Init(): Starting webserver thread(s)
T5F00 000:015.727   WEBSRV Webserver running on local port 19080
T5F00 000:030.249 - 20.310ms returns "O.K."
T5F00 000:030.295 JLINK_GetEmuCaps()
T5F00 000:030.308 - 0.018ms returns 0xB8EA5A33
T5F00 000:030.325 JLINK_TIF_GetAvailable(...)
T5F00 000:030.597 - 0.284ms
T5F00 000:030.624 JLINK_SetErrorOutHandler(...)
T5F00 000:030.636 - 0.017ms
T5F00 000:030.668 JLINK_ExecCommand("ProjectFile = "C:\Users\ken chen\Desktop\nordic code\nRF5_SDK_15.2.0_9412b96\examples\ble_peripheral\ble_app_uart\pca10040\s132\arm5_no_packs\JLinkSettings.ini"", ...). 
T5F00 000:042.734   Ref file found at: C:\Keil_v5\ARM\Segger\JLinkDevices.ref
T5F00 000:042.884   XML referenced by ref file: C:\Program Files (x86)\SEGGER\JLink\JLinkDevices.xml
T5F00 000:043.839   C:\Program Files (x86)\SEGGER\JLink\JLinkDevices.xml evaluated successfully.
T5F00 000:094.515 - 63.861ms returns 0x00
T5F00 000:097.673 JLINK_ExecCommand("Device = nRF52832_xxAA", ...). 
T5F00 000:102.303   Device "NRF52832_XXAA" selected.
T5F00 000:102.672 - 4.983ms returns 0x00
T5F00 000:102.694 JLINK_ExecCommand("DisableConnectionTimeout", ...). 
T5F00 000:102.712 - 0.008ms returns 0x01
T5F00 000:102.727 JLINK_GetHardwareVersion()
T5F00 000:102.739 - 0.017ms returns 10000
T5F00 000:102.753 JLINK_GetDLLVersion()
T5F00 000:102.764 - 0.016ms returns 75802
T5F00 000:102.778 JLINK_GetOEMString(...)
T5F00 000:102.800 JLINK_GetFirmwareString(...)
T5F00 000:102.813 - 0.018ms
T5F00 000:112.196 JLINK_GetDLLVersion()
T5F00 000:112.230 - 0.040ms returns 75802
T5F00 000:112.246 JLINK_GetCompileDateTime()
T5F00 000:112.258 - 0.017ms
T5F00 000:115.110 JLINK_GetFirmwareString(...)
T5F00 000:115.135 - 0.031ms
T5F00 000:118.639 JLINK_GetHardwareVersion()
T5F00 000:118.668 - 0.035ms returns 10000
T5F00 000:122.038 JLINK_GetSN()
T5F00 000:122.064 - 0.032ms returns 682252446
T5F00 000:124.762 JLINK_GetOEMString(...)
T5F00 000:130.975 JLINK_TIF_Select(JLINKARM_TIF_SWD)
T5F00 000:131.723 - 0.761ms returns 0x00
T5F00 000:131.749 JLINK_HasError()
T5F00 000:131.772 JLINK_SetSpeed(5000)
T5F00 000:131.867 - 0.106ms
T5F00 000:131.891 JLINK_GetId()
T5F00 000:134.908   InitTarget() start
T5F00 000:134.950    J-Link Script File: Executing InitTarget()
T5F00 000:140.639   InitTarget() end
T5F00 000:144.190   Found SW-DP with ID 0x2BA01477
T5F00 000:149.818   DPIDR: 0x2BA01477
T5F00 000:152.551   CoreSight SoC-400 or earlier
T5F00 000:155.248   Scanning AP map to find all available APs
T5F00 000:159.673   AP[2]: Stopped AP scan as end of AP map has been reached
T5F00 000:162.423   AP[0]: AHB-AP (IDR: 0x24770011)
T5F00 000:165.078   AP[1]: JTAG-AP (IDR: 0x02880000)
T5F00 000:167.979   Iterating through AP map to find AHB-AP to use
T5F00 000:171.783   AP[0]: Core found
T5F00 000:174.412   AP[0]: AHB-AP ROM base: 0xE00FF000
T5F00 000:178.495   CPUID register: 0x410FC241. Implementer code: 0x41 (ARM)
T5F00 000:181.767   Found Cortex-M4 r0p1, Little endian.
T5F00 000:283.154   -- Max. mem block: 0x00004580
T5F00 000:283.528   CPU_ReadMem(4 bytes @ 0xE000EDF0)
T5F00 000:284.434   CPU_WriteMem(4 bytes @ 0xE000EDF0)
T5F00 000:285.407   CPU_ReadMem(4 bytes @ 0xE0002000)
T5F00 000:299.759   FPUnit: 6 code (BP) slots and 2 literal slots
T5F00 000:299.881   CPU_ReadMem(4 bytes @ 0xE000EDFC)
T5F00 000:300.913   CPU_WriteMem(4 bytes @ 0xE000EDFC)
T5F00 000:301.765   CPU_ReadMem(4 bytes @ 0xE0001000)
T5F00 000:302.632   CPU_WriteMem(4 bytes @ 0xE0001000)
T5F00 000:303.515   CPU_ReadMem(4 bytes @ 0xE000ED88)
T5F00 000:304.432   CPU_WriteMem(4 bytes @ 0xE000ED88)
T5F00 000:305.266   CPU_ReadMem(4 bytes @ 0xE000ED88)
T5F00 000:306.117   CPU_WriteMem(4 bytes @ 0xE000ED88)
T5F00 000:315.332   CoreSight components:
T5F00 000:321.190   ROMTbl[0] @ E00FF000
T5F00 000:321.245   CPU_ReadMem(64 bytes @ 0xE00FF000)
T5F00 000:322.692   CPU_ReadMem(32 bytes @ 0xE000EFE0)
T5F00 000:327.705   [0][0]: E000E000 CID B105E00D PID 000BB00C SCS-M7
T5F00 000:327.754   CPU_ReadMem(32 bytes @ 0xE0001FE0)
T5F00 000:331.382   [0][1]: E0001000 CID B105E00D PID 003BB002 DWT
T5F00 000:331.412   CPU_ReadMem(32 bytes @ 0xE0002FE0)
T5F00 000:335.468   [0][2]: E0002000 CID B105E00D PID 002BB003 FPB
T5F00 000:335.505   CPU_ReadMem(32 bytes @ 0xE0000FE0)
T5F00 000:339.192   [0][3]: E0000000 CID B105E00D PID 003BB001 ITM
T5F00 000:339.223   CPU_ReadMem(32 bytes @ 0xE0040FE0)
T5F00 000:343.091   [0][4]: E0040000 CID B105900D PID 000BB9A1 TPIU
T5F00 000:343.126   CPU_ReadMem(32 bytes @ 0xE0041FE0)
T5F00 000:347.051   [0][5]: E0041000 CID B105900D PID 000BB925 ETM
T5F00 000:347.403 - 215.525ms returns 0x2BA01477
T5F00 000:347.433 JLINK_GetDLLVersion()
T5F00 000:347.445 - 0.041ms returns 75802
T5F00 000:347.572 JLINK_CORE_GetFound()
T5F00 000:347.591 - 0.024ms returns 0xE0000FF
T5F00 000:347.611 JLINK_GetDebugInfo(0x100 = JLINKARM_ROM_TABLE_ADDR_INDEX)
T5F00 000:347.627   Value=0xE00FF000
T5F00 000:347.643 - 0.037ms returns 0
T5F00 000:351.594 JLINK_GetDebugInfo(0x100 = JLINKARM_ROM_TABLE_ADDR_INDEX)
T5F00 000:351.627   Value=0xE00FF000
T5F00 000:351.643 - 0.055ms returns 0
T5F00 000:351.659 JLINK_GetDebugInfo(0x101 = JLINKARM_DEBUG_INFO_ETM_ADDR_INDEX)
T5F00 000:351.670   Value=0xE0041000
T5F00 000:351.687 - 0.033ms returns 0
T5F00 000:351.701 JLINK_ReadMemEx(0xE0041FD0, 0x20 Bytes, Flags = 0x02000004)
T5F00 000:351.739   CPU_ReadMem(32 bytes @ 0xE0041FD0)
T5F00 000:352.735   Data:  04 00 00 00 00 00 00 00 00 00 00 00 00 00 00 00 ...
T5F00 000:352.761 - 1.065ms returns 32 (0x20)
T5F00 000:352.779 JLINK_GetDebugInfo(0x102 = JLINKARM_DEBUG_INFO_MTB_ADDR_INDEX)
T5F00 000:352.791   Value=0x00000000
T5F00 000:352.807 - 0.033ms returns 0
T5F00 000:352.821 JLINK_GetDebugInfo(0x103 = JLINKARM_DEBUG_INFO_TPIU_ADDR_INDEX)
T5F00 000:352.833   Value=0xE0040000
T5F00 000:352.849 - 0.032ms returns 0
T5F00 000:352.863 JLINK_GetDebugInfo(0x104 = JLINKARM_DEBUG_INFO_ITM_ADDR_INDEX)
T5F00 000:352.874   Value=0xE0000000
T5F00 000:352.890 - 0.032ms returns 0
T5F00 000:352.904 JLINK_GetDebugInfo(0x105 = JLINKARM_DEBUG_INFO_DWT_ADDR_INDEX)
T5F00 000:352.915   Value=0xE0001000
T5F00 000:352.931 - 0.032ms returns 0
T5F00 000:352.945 JLINK_GetDebugInfo(0x106 = JLINKARM_DEBUG_INFO_FPB_ADDR_INDEX)
T5F00 000:352.956   Value=0xE0002000
T5F00 000:352.972 - 0.032ms returns 0
T5F00 000:352.986 JLINK_GetDebugInfo(0x107 = JLINKARM_DEBUG_INFO_NVIC_ADDR_INDEX)
T5F00 000:352.997   Value=0xE000E000
T5F00 000:353.013 - 0.032ms returns 0
T5F00 000:353.027 JLINK_GetDebugInfo(0x10C = JLINKARM_DEBUG_INFO_DBG_ADDR_INDEX)
T5F00 000:353.038   Value=0xE000EDF0
T5F00 000:353.054 - 0.032ms returns 0
T5F00 000:353.068 JLINK_GetDebugInfo(0x01 = Unknown)
T5F00 000:353.079   Value=0x00000001
T5F00 000:353.095 - 0.032ms returns 0
T5F00 000:353.109 JLINK_ReadMemU32(0xE000ED00, 0x1 Items)
T5F00 000:353.127   CPU_ReadMem(4 bytes @ 0xE000ED00)
T5F00 000:353.777   Data:  41 C2 0F 41
T5F00 000:353.801   Debug reg: CPUID
T5F00 000:353.818 - 0.714ms returns 1 (0x1)
T5F00 000:353.835 JLINK_GetDebugInfo(0x10F = JLINKARM_DEBUG_INFO_HAS_CORTEX_M_SECURITY_EXT_INDEX)
T5F00 000:353.847   Value=0x00000000
T5F00 000:353.863 - 0.033ms returns 0
T5F00 000:353.878 JLINK_HasError()
T5F00 000:353.893 JLINK_SetResetType(JLINKARM_CM3_RESET_TYPE_NORMAL)
T5F00 000:353.904 - 0.017ms returns JLINKARM_CM3_RESET_TYPE_NORMAL
T5F00 000:353.919 JLINK_Reset()
T5F00 000:353.949   CPU is running
T5F00 000:353.970   CPU_WriteMem(4 bytes @ 0xE000EDF0)
T5F00 000:354.619   CPU is running
T5F00 000:354.644   CPU_WriteMem(4 bytes @ 0xE000EDFC)
T5F00 000:358.620   Reset: Halt core after reset via DEMCR.VC_CORERESET.
T5F00 000:362.311   Reset: Reset device via AIRCR.SYSRESETREQ.
T5F00 000:362.343   CPU is running
T5F00 000:362.364   CPU_WriteMem(4 bytes @ 0xE000ED0C)
T5F00 000:414.820   CPU_ReadMem(4 bytes @ 0xE000EDF0)
T5F00 000:415.475   CPU_ReadMem(4 bytes @ 0xE000EDF0)
T5F00 000:416.109   CPU is running
T5F00 000:416.137   CPU_WriteMem(4 bytes @ 0xE000EDF0)
T5F00 000:416.766   CPU is running
T5F00 000:416.791   CPU_WriteMem(4 bytes @ 0xE000EDFC)
T5F00 000:423.483   CPU_ReadMem(4 bytes @ 0xE000EDF0)
T5F00 000:430.602   CPU_WriteMem(4 bytes @ 0xE0002000)
T5F00 000:431.219   CPU_ReadMem(4 bytes @ 0xE000EDFC)
T5F00 000:431.892   CPU_ReadMem(4 bytes @ 0xE0001000)
T5F00 000:432.539 - 78.634ms
T5F00 000:432.572 JLINK_Halt()
T5F00 000:432.586 - 0.020ms returns 0x00
T5F00 000:432.683 JLINK_ReadMemU32(0xE000EDF0, 0x1 Items)
T5F00 000:432.713   CPU_ReadMem(4 bytes @ 0xE000EDF0)
T5F00 000:433.368   Data:  03 00 03 00
T5F00 000:433.395   Debug reg: DHCSR
T5F00 000:433.413 - 0.737ms returns 1 (0x1)
T5F00 000:433.432 JLINK_WriteU32_64(0xE000EDF0, 0xA05F0003)
T5F00 000:433.446   Debug reg: DHCSR
T5F00 000:433.797   CPU_WriteMem(4 bytes @ 0xE000EDF0)
T5F00 000:434.420 - 1.002ms returns 0 (0x00000000)
T5F00 000:434.448 JLINK_WriteU32_64(0xE000EDFC, 0x01000000)
T5F00 000:434.462   Debug reg: DEMCR
T5F00 000:434.487   CPU_WriteMem(4 bytes @ 0xE000EDFC)
T5F00 000:435.137 - 0.704ms returns 0 (0x00000000)
T5F00 000:448.423 JLINK_GetHWStatus(...)
T5F00 000:448.730 - 0.324ms returns 0
T5F00 000:457.752 JLINK_GetNumBPUnits(Type = 0xFFFFFF00)
T5F00 000:457.781 - 0.035ms returns 0x06
T5F00 000:457.797 JLINK_GetNumBPUnits(Type = 0xF0)
T5F00 000:457.809 - 0.017ms returns 0x2000
T5F00 000:457.823 JLINK_GetNumWPUnits()
T5F00 000:457.834 - 0.016ms returns 4
T5F00 000:468.586 JLINK_GetSpeed()
T5F00 000:468.618 - 0.037ms returns 1000
T5F00 000:474.702 JLINK_ReadMemU32(0xE000E004, 0x1 Items)
T5F00 000:474.743   CPU_ReadMem(4 bytes @ 0xE000E004)
T5F00 000:475.420   Data:  01 00 00 00
T5F00 000:475.444 - 0.748ms returns 1 (0x1)
T5F00 000:475.462 JLINK_ReadMemU32(0xE000E004, 0x1 Items)
T5F00 000:475.479   CPU_ReadMem(4 bytes @ 0xE000E004)
T5F00 000:476.097   Data:  01 00 00 00
T5F00 000:476.121 - 0.665ms returns 1 (0x1)
T5F00 000:476.138 JLINK_WriteMemEx(0xE0001000, 0x0000001C Bytes, Flags = 0x02000004)
T5F00 000:476.151   Data:  01 00 00 00 00 00 00 00 00 00 00 00 00 00 00 00 ...
T5F00 000:476.175   CPU_WriteMem(28 bytes @ 0xE0001000)
T5F00 000:477.142 - 1.016ms returns 0x1C
T5F00 000:477.170 JLINK_Halt()
T5F00 000:477.182 - 0.017ms returns 0x00
T5F00 000:477.197 JLINK_IsHalted()
T5F00 000:477.209 - 0.017ms returns TRUE
T5F00 000:481.397 JLINK_WriteMem(0x20000000, 0x248 Bytes, ...)
T5F00 000:481.418   Data:  00 BE 0A E0 0D 78 2D 06 68 40 08 24 40 00 00 D3 ...
T5F00 000:481.768   CPU_WriteMem(584 bytes @ 0x20000000)
T5F00 000:489.792 - 8.413ms returns 0x248
T5F00 000:489.860 JLINK_HasError()
T5F00 000:489.880 JLINK_WriteReg(R0, 0x00000000)
T5F00 000:489.905 - 0.031ms returns 0
T5F00 000:489.984 JLINK_WriteReg(R1, 0x03D09000)
T5F00 000:490.004 - 0.025ms returns 0
T5F00 000:490.019 JLINK_WriteReg(R2, 0x00000001)
T5F00 000:490.031 - 0.017ms returns 0
T5F00 000:490.045 JLINK_WriteReg(R3, 0x00000000)
T5F00 000:490.057 - 0.017ms returns 0
T5F00 000:490.071 JLINK_WriteReg(R4, 0x00000000)
T5F00 000:490.082 - 0.017ms returns 0
T5F00 000:490.097 JLINK_WriteReg(R5, 0x00000000)
T5F00 000:490.108 - 0.017ms returns 0
T5F00 000:490.122 JLINK_WriteReg(R6, 0x00000000)
T5F00 000:490.134 - 0.017ms returns 0
T5F00 000:490.148 JLINK_WriteReg(R7, 0x00000000)
T5F00 000:490.160 - 0.017ms returns 0
T5F00 000:490.174 JLINK_WriteReg(R8, 0x00000000)
T5F00 000:490.192 - 0.023ms returns 0
T5F00 000:490.206 JLINK_WriteReg(R9, 0x20000244)
T5F00 000:490.217 - 0.017ms returns 0
T5F00 000:490.235 JLINK_WriteReg(R10, 0x00000000)
T5F00 000:490.249 - 0.019ms returns 0
T5F00 000:490.263 JLINK_WriteReg(R11, 0x00000000)
T5F00 000:490.275 - 0.017ms returns 0
T5F00 000:490.289 JLINK_WriteReg(R12, 0x00000000)
T5F00 000:490.301 - 0.017ms returns 0
T5F00 000:490.315 JLINK_WriteReg(R13 (SP), 0x20002000)
T5F00 000:490.327 - 0.018ms returns 0
T5F00 000:490.341 JLINK_WriteReg(R14, 0x20000001)
T5F00 000:490.353 - 0.017ms returns 0
T5F00 000:490.367 JLINK_WriteReg(R15 (PC), 0x20000048)
T5F00 000:490.379 - 0.017ms returns 0
T5F00 000:490.393 JLINK_WriteReg(XPSR, 0x01000000)
T5F00 000:490.404 - 0.017ms returns 0
T5F00 000:490.420 JLINK_WriteReg(MSP, 0x20002000)
T5F00 000:490.432 - 0.017ms returns 0
T5F00 000:490.446 JLINK_WriteReg(PSP, 0x20002000)
T5F00 000:490.457 - 0.017ms returns 0
T5F00 000:490.472 JLINK_WriteReg(CFBP, 0x00000000)
T5F00 000:490.499 - 0.033ms returns 0
T5F00 000:490.527 JLINK_SetBPEx(Addr = 0x20000000, Type = 0xFFFFFFF2)
T5F00 000:490.545   CPU_ReadMem(2 bytes @ 0x20000000)
T5F00 000:491.198 - 0.684ms returns 0x00000001
T5F00 000:491.223 JLINK_Go()
T5F00 000:491.239   CPU_WriteMem(2 bytes @ 0x20000000)
T5F00 000:491.823   CPU_ReadMem(4 bytes @ 0xE0001000)
T5F00 000:492.446   CPU_WriteMem(4 bytes @ 0xE0002008)
T5F00 000:492.471   CPU_WriteMem(4 bytes @ 0xE000200C)
T5F00 000:492.488   CPU_WriteMem(4 bytes @ 0xE0002010)
T5F00 000:492.505   CPU_WriteMem(4 bytes @ 0xE0002014)
T5F00 000:492.522   CPU_WriteMem(4 bytes @ 0xE0002018)
T5F00 000:492.538   CPU_WriteMem(4 bytes @ 0xE000201C)
T5F00 000:495.218   CPU_WriteMem(4 bytes @ 0xE0001004)
T5F00 000:501.671 - 10.464ms
T5F00 000:501.701 JLINK_IsHalted()
T5F00 000:508.143   CPU_ReadMem(2 bytes @ 0x20000000)
T5F00 000:508.757 - 7.069ms returns TRUE
T5F00 000:508.784 JLINK_ReadReg(R15 (PC))
T5F00 000:508.799 - 0.021ms returns 0x20000000
T5F00 000:508.815 JLINK_ClrBPEx(BPHandle = 0x00000001)
T5F00 000:508.827 - 0.018ms returns 0x00
T5F00 000:508.842 JLINK_ReadReg(R0)
T5F00 000:508.854 - 0.017ms returns 0x00000000
T5F00 000:509.311 JLINK_HasError()
T5F00 000:509.335 JLINK_WriteReg(R0, 0x00026000)
T5F00 000:509.349 - 0.020ms returns 0
T5F00 000:509.364 JLINK_WriteReg(R1, 0x00001000)
T5F00 000:509.376 - 0.017ms returns 0
T5F00 000:509.391 JLINK_WriteReg(R2, 0x000000FF)
T5F00 000:509.403 - 0.017ms returns 0
T5F00 000:509.417 JLINK_WriteReg(R3, 0x00000000)
T5F00 000:509.428 - 0.017ms returns 0
T5F00 000:509.443 JLINK_WriteReg(R4, 0x00000000)
T5F00 000:509.454 - 0.017ms returns 0
T5F00 000:509.468 JLINK_WriteReg(R5, 0x00000000)
T5F00 000:509.480 - 0.017ms returns 0
T5F00 000:509.494 JLINK_WriteReg(R6, 0x00000000)
T5F00 000:509.506 - 0.017ms returns 0
T5F00 000:509.520 JLINK_WriteReg(R7, 0x00000000)
T5F00 000:509.532 - 0.017ms returns 0
T5F00 000:509.546 JLINK_WriteReg(R8, 0x00000000)
T5F00 000:509.558 - 0.017ms returns 0
T5F00 000:509.572 JLINK_WriteReg(R9, 0x20000244)
T5F00 000:509.583 - 0.017ms returns 0
T5F00 000:509.598 JLINK_WriteReg(R10, 0x00000000)
T5F00 000:509.609 - 0.017ms returns 0
T5F00 000:509.623 JLINK_WriteReg(R11, 0x00000000)
T5F00 000:509.635 - 0.017ms returns 0
T5F00 000:509.649 JLINK_WriteReg(R12, 0x00000000)
T5F00 000:509.661 - 0.017ms returns 0
T5F00 000:509.675 JLINK_WriteReg(R13 (SP), 0x20002000)
T5F00 000:509.687 - 0.017ms returns 0
T5F00 000:509.701 JLINK_WriteReg(R14, 0x20000001)
T5F00 000:509.713 - 0.017ms returns 0
T5F00 000:509.727 JLINK_WriteReg(R15 (PC), 0x2000012E)
T5F00 000:509.739 - 0.017ms returns 0
T5F00 000:509.753 JLINK_WriteReg(XPSR, 0x01000000)
T5F00 000:509.765 - 0.017ms returns 0
T5F00 000:509.779 JLINK_WriteReg(MSP, 0x20002000)
T5F00 000:509.791 - 0.017ms returns 0
T5F00 000:509.805 JLINK_WriteReg(PSP, 0x20002000)
T5F00 000:509.816 - 0.017ms returns 0
T5F00 000:509.830 JLINK_WriteReg(CFBP, 0x00000000)
T5F00 000:509.842 - 0.017ms returns 0
T5F00 000:509.856 JLINK_SetBPEx(Addr = 0x20000000, Type = 0xFFFFFFF2)
T5F00 000:509.869 - 0.018ms returns 0x00000002
T5F00 000:509.884 JLINK_Go()
T5F00 000:509.903   CPU_ReadMem(4 bytes @ 0xE0001000)
T5F00 000:516.556 - 6.689ms
T5F00 000:516.589 JLINK_IsHalted()
T5F00 000:517.290 - 0.713ms returns FALSE
T5F00 000:517.318 JLINK_HasError()
T5F00 000:539.584 JLINK_IsHalted()
T5F00 000:546.475   CPU_ReadMem(2 bytes @ 0x20000000)
T5F00 000:547.361 - 7.828ms returns TRUE
T5F00 000:547.471 JLINK_ReadReg(R15 (PC))
T5F00 000:547.530 - 0.082ms returns 0x20000000
T5F00 000:547.595 JLINK_ClrBPEx(BPHandle = 0x00000002)
T5F00 000:547.644 - 0.071ms returns 0x00
T5F00 000:547.708 JLINK_ReadReg(R0)
T5F00 000:547.754 - 0.068ms returns 0x00000000
T5F00 000:550.909 JLINK_HasError()
T5F00 000:551.015 JLINK_WriteReg(R0, 0x00027000)
T5F00 000:551.075 - 0.083ms returns 0
T5F00 000:551.133 JLINK_WriteReg(R1, 0x00001000)
T5F00 000:551.180 - 0.069ms returns 0
T5F00 000:551.235 JLINK_WriteReg(R2, 0x000000FF)
T5F00 000:551.281 - 0.070ms returns 0
T5F00 000:551.343 JLINK_WriteReg(R3, 0x00000000)
T5F00 000:551.389 - 0.068ms returns 0
T5F00 000:551.444 JLINK_WriteReg(R4, 0x00000000)
T5F00 000:551.489 - 0.067ms returns 0
T5F00 000:551.546 JLINK_WriteReg(R5, 0x00000000)
T5F00 000:551.591 - 0.066ms returns 0
T5F00 000:551.645 JLINK_WriteReg(R6, 0x00000000)
T5F00 000:551.690 - 0.066ms returns 0
T5F00 000:551.744 JLINK_WriteReg(R7, 0x00000000)
T5F00 000:551.789 - 0.066ms returns 0
T5F00 000:551.843 JLINK_WriteReg(R8, 0x00000000)
T5F00 000:551.888 - 0.066ms returns 0
T5F00 000:551.942 JLINK_WriteReg(R9, 0x20000244)
T5F00 000:551.988 - 0.067ms returns 0
T5F00 000:552.042 JLINK_WriteReg(R10, 0x00000000)
T5F00 000:552.087 - 0.067ms returns 0
T5F00 000:552.142 JLINK_WriteReg(R11, 0x00000000)
T5F00 000:552.187 - 0.066ms returns 0
T5F00 000:552.241 JLINK_WriteReg(R12, 0x00000000)
T5F00 000:552.286 - 0.067ms returns 0
T5F00 000:552.343 JLINK_WriteReg(R13 (SP), 0x20002000)
T5F00 000:552.391 - 0.069ms returns 0
T5F00 000:552.446 JLINK_WriteReg(R14, 0x20000001)
T5F00 000:552.492 - 0.067ms returns 0
T5F00 000:552.547 JLINK_WriteReg(R15 (PC), 0x2000012E)
T5F00 000:552.592 - 0.067ms returns 0
T5F00 000:552.646 JLINK_WriteReg(XPSR, 0x01000000)
T5F00 000:552.692 - 0.067ms returns 0
T5F00 000:552.746 JLINK_WriteReg(MSP, 0x20002000)
T5F00 000:552.791 - 0.066ms returns 0
T5F00 000:552.846 JLINK_WriteReg(PSP, 0x20002000)
T5F00 000:552.890 - 0.068ms returns 0
T5F00 000:552.947 JLINK_WriteReg(CFBP, 0x00000000)
T5F00 000:552.991 - 0.067ms returns 0
T5F00 000:553.047 JLINK_SetBPEx(Addr = 0x20000000, Type = 0xFFFFFFF2)
T5F00 000:553.096 - 0.071ms returns 0x00000003
T5F00 000:553.152 JLINK_Go()
T5F00 000:553.230   CPU_ReadMem(4 bytes @ 0xE0001000)
T5F00 000:560.160 - 7.042ms
T5F00 000:560.220 JLINK_IsHalted()
T5F00 000:560.938 - 0.742ms returns FALSE
T5F00 000:560.986 JLINK_HasError()
T5F00 000:594.754 JLINK_IsHalted()
T5F00 000:601.289   CPU_ReadMem(2 bytes @ 0x20000000)
T5F00 000:601.956 - 7.212ms returns TRUE
T5F00 000:601.983 JLINK_ReadReg(R15 (PC))
T5F00 000:601.999 - 0.021ms returns 0x20000000
T5F00 000:602.014 JLINK_ClrBPEx(BPHandle = 0x00000003)
T5F00 000:602.026 - 0.018ms returns 0x00
T5F00 000:602.043 JLINK_ReadReg(R0)
T5F00 000:602.055 - 0.017ms returns 0x00000000
T5F00 000:602.672 JLINK_HasError()
T5F00 000:602.694 JLINK_WriteReg(R0, 0x00028000)
T5F00 000:602.708 - 0.019ms returns 0
T5F00 000:602.722 JLINK_WriteReg(R1, 0x00001000)
T5F00 000:602.734 - 0.017ms returns 0
T5F00 000:602.748 JLINK_WriteReg(R2, 0x000000FF)
T5F00 000:602.760 - 0.017ms returns 0
T5F00 000:602.774 JLINK_WriteReg(R3, 0x00000000)
T5F00 000:602.785 - 0.017ms returns 0
T5F00 000:602.799 JLINK_WriteReg(R4, 0x00000000)
T5F00 000:602.810 - 0.017ms returns 0
T5F00 000:602.825 JLINK_WriteReg(R5, 0x00000000)
T5F00 000:602.836 - 0.017ms returns 0
T5F00 000:602.850 JLINK_WriteReg(R6, 0x00000000)
T5F00 000:602.862 - 0.017ms returns 0
T5F00 000:602.876 JLINK_WriteReg(R7, 0x00000000)
T5F00 000:602.887 - 0.017ms returns 0
T5F00 000:602.901 JLINK_WriteReg(R8, 0x00000000)
T5F00 000:602.912 - 0.017ms returns 0
T5F00 000:602.926 JLINK_WriteReg(R9, 0x20000244)
T5F00 000:602.938 - 0.017ms returns 0
T5F00 000:602.952 JLINK_WriteReg(R10, 0x00000000)
T5F00 000:603.022 - 0.076ms returns 0
T5F00 000:603.037 JLINK_WriteReg(R11, 0x00000000)
T5F00 000:603.048 - 0.017ms returns 0
T5F00 000:603.062 JLINK_WriteReg(R12, 0x00000000)
T5F00 000:603.074 - 0.017ms returns 0
T5F00 000:603.088 JLINK_WriteReg(R13 (SP), 0x20002000)
T5F00 000:603.100 - 0.017ms returns 0
T5F00 000:603.114 JLINK_WriteReg(R14, 0x20000001)
T5F00 000:603.125 - 0.017ms returns 0
T5F00 000:603.139 JLINK_WriteReg(R15 (PC), 0x2000012E)
T5F00 000:603.151 - 0.017ms returns 0
T5F00 000:603.165 JLINK_WriteReg(XPSR, 0x01000000)
T5F00 000:603.177 - 0.017ms returns 0
T5F00 000:603.191 JLINK_WriteReg(MSP, 0x20002000)
T5F00 000:603.202 - 0.017ms returns 0
T5F00 000:603.216 JLINK_WriteReg(PSP, 0x20002000)
T5F00 000:603.228 - 0.017ms returns 0
T5F00 000:603.242 JLINK_WriteReg(CFBP, 0x00000000)
T5F00 000:603.254 - 0.017ms returns 0
T5F00 000:603.268 JLINK_SetBPEx(Addr = 0x20000000, Type = 0xFFFFFFF2)
T5F00 000:603.281 - 0.018ms returns 0x00000004
T5F00 000:603.295 JLINK_Go()
T5F00 000:603.314   CPU_ReadMem(4 bytes @ 0xE0001000)
T5F00 000:609.895 - 6.616ms
T5F00 000:609.925 JLINK_IsHalted()
T5F00 000:610.534 - 0.622ms returns FALSE
T5F00 000:610.560 JLINK_HasError()
T5F00 000:615.174 JLINK_IsHalted()
T5F00 000:621.612   CPU_ReadMem(2 bytes @ 0x20000000)
T5F00 000:622.271 - 7.108ms returns TRUE
T5F00 000:622.296 JLINK_ReadReg(R15 (PC))
T5F00 000:622.312 - 0.021ms returns 0x20000000
T5F00 000:622.327 JLINK_ClrBPEx(BPHandle = 0x00000004)
T5F00 000:622.340 - 0.019ms returns 0x00
T5F00 000:622.356 JLINK_ReadReg(R0)
T5F00 000:622.368 - 0.018ms returns 0x00000000
T5F00 000:623.091 JLINK_HasError()
T5F00 000:623.117 JLINK_WriteReg(R0, 0x00029000)
T5F00 000:623.132 - 0.021ms returns 0
T5F00 000:623.148 JLINK_WriteReg(R1, 0x00001000)
T5F00 000:623.161 - 0.019ms returns 0
T5F00 000:623.176 JLINK_WriteReg(R2, 0x000000FF)
T5F00 000:623.189 - 0.018ms returns 0
T5F00 000:623.203 JLINK_WriteReg(R3, 0x00000000)
T5F00 000:623.215 - 0.017ms returns 0
T5F00 000:623.230 JLINK_WriteReg(R4, 0x00000000)
T5F00 000:623.242 - 0.017ms returns 0
T5F00 000:623.256 JLINK_WriteReg(R5, 0x00000000)
T5F00 000:623.268 - 0.017ms returns 0
T5F00 000:623.283 JLINK_WriteReg(R6, 0x00000000)
T5F00 000:623.295 - 0.017ms returns 0
T5F00 000:623.309 JLINK_WriteReg(R7, 0x00000000)
T5F00 000:623.321 - 0.017ms returns 0
T5F00 000:623.336 JLINK_WriteReg(R8, 0x00000000)
T5F00 000:623.348 - 0.017ms returns 0
T5F00 000:623.362 JLINK_WriteReg(R9, 0x20000244)
T5F00 000:623.374 - 0.017ms returns 0
T5F00 000:623.389 JLINK_WriteReg(R10, 0x00000000)
T5F00 000:623.401 - 0.017ms returns 0
T5F00 000:623.415 JLINK_WriteReg(R11, 0x00000000)
T5F00 000:623.428 - 0.018ms returns 0
T5F00 000:623.443 JLINK_WriteReg(R12, 0x00000000)
T5F00 000:623.455 - 0.018ms returns 0
T5F00 000:623.470 JLINK_WriteReg(R13 (SP), 0x20002000)
T5F00 000:623.482 - 0.018ms returns 0
T5F00 000:623.497 JLINK_WriteReg(R14, 0x20000001)
T5F00 000:623.509 - 0.018ms returns 0
T5F00 000:623.524 JLINK_WriteReg(R15 (PC), 0x2000012E)
T5F00 000:623.536 - 0.017ms returns 0
T5F00 000:623.550 JLINK_WriteReg(XPSR, 0x01000000)
T5F00 000:623.562 - 0.017ms returns 0
T5F00 000:623.577 JLINK_WriteReg(MSP, 0x20002000)
T5F00 000:623.589 - 0.017ms returns 0
T5F00 000:623.603 JLINK_WriteReg(PSP, 0x20002000)
T5F00 000:623.615 - 0.017ms returns 0
T5F00 000:623.630 JLINK_WriteReg(CFBP, 0x00000000)
T5F00 000:623.642 - 0.018ms returns 0
T5F00 000:623.657 JLINK_SetBPEx(Addr = 0x20000000, Type = 0xFFFFFFF2)
T5F00 000:623.670 - 0.019ms returns 0x00000005
T5F00 000:623.685 JLINK_Go()
T5F00 000:623.705   CPU_ReadMem(4 bytes @ 0xE0001000)
T5F00 000:630.130 - 6.462ms
T5F00 000:630.163 JLINK_IsHalted()
T5F00 000:630.783 - 0.646ms returns FALSE
T5F00 000:630.824 JLINK_HasError()
T5F00 000:639.496 JLINK_IsHalted()
T5F00 000:645.940   CPU_ReadMem(2 bytes @ 0x20000000)
T5F00 000:646.517 - 7.035ms returns TRUE
T5F00 000:646.546 JLINK_ReadReg(R15 (PC))
T5F00 000:646.562 - 0.022ms returns 0x20000000
T5F00 000:646.578 JLINK_ClrBPEx(BPHandle = 0x00000005)
T5F00 000:646.594 - 0.026ms returns 0x00
T5F00 000:646.614 JLINK_ReadReg(R0)
T5F00 000:646.626 - 0.018ms returns 0x00000000
T5F00 000:647.246 JLINK_HasError()
T5F00 000:647.272 JLINK_WriteReg(R0, 0x0002A000)
T5F00 000:647.288 - 0.021ms returns 0
T5F00 000:647.304 JLINK_WriteReg(R1, 0x00001000)
T5F00 000:647.316 - 0.018ms returns 0
T5F00 000:647.333 JLINK_WriteReg(R2, 0x000000FF)
T5F00 000:647.346 - 0.018ms returns 0
T5F00 000:647.360 JLINK_WriteReg(R3, 0x00000000)
T5F00 000:647.372 - 0.017ms returns 0
T5F00 000:647.388 JLINK_WriteReg(R4, 0x00000000)
T5F00 000:647.400 - 0.018ms returns 0
T5F00 000:647.414 JLINK_WriteReg(R5, 0x00000000)
T5F00 000:647.426 - 0.017ms returns 0
T5F00 000:647.441 JLINK_WriteReg(R6, 0x00000000)
T5F00 000:647.453 - 0.017ms returns 0
T5F00 000:647.467 JLINK_WriteReg(R7, 0x00000000)
T5F00 000:647.479 - 0.018ms returns 0
T5F00 000:647.494 JLINK_WriteReg(R8, 0x00000000)
T5F00 000:647.506 - 0.018ms returns 0
T5F00 000:647.521 JLINK_WriteReg(R9, 0x20000244)
T5F00 000:647.533 - 0.018ms returns 0
T5F00 000:647.548 JLINK_WriteReg(R10, 0x00000000)
T5F00 000:647.560 - 0.018ms returns 0
T5F00 000:647.575 JLINK_WriteReg(R11, 0x00000000)
T5F00 000:647.587 - 0.017ms returns 0
T5F00 000:647.601 JLINK_WriteReg(R12, 0x00000000)
T5F00 000:647.613 - 0.017ms returns 0
T5F00 000:647.628 JLINK_WriteReg(R13 (SP), 0x20002000)
T5F00 000:647.640 - 0.018ms returns 0
T5F00 000:647.655 JLINK_WriteReg(R14, 0x20000001)
T5F00 000:647.667 - 0.018ms returns 0
T5F00 000:647.682 JLINK_WriteReg(R15 (PC), 0x2000012E)
T5F00 000:647.694 - 0.017ms returns 0
T5F00 000:647.708 JLINK_WriteReg(XPSR, 0x01000000)
T5F00 000:647.720 - 0.017ms returns 0
T5F00 000:647.735 JLINK_WriteReg(MSP, 0x20002000)
T5F00 000:647.747 - 0.018ms returns 0
T5F00 000:647.762 JLINK_WriteReg(PSP, 0x20002000)
T5F00 000:647.774 - 0.017ms returns 0
T5F00 000:647.788 JLINK_WriteReg(CFBP, 0x00000000)
T5F00 000:647.800 - 0.017ms returns 0
T5F00 000:647.815 JLINK_SetBPEx(Addr = 0x20000000, Type = 0xFFFFFFF2)
T5F00 000:647.829 - 0.019ms returns 0x00000006
T5F00 000:647.844 JLINK_Go()
T5F00 000:647.867   CPU_ReadMem(4 bytes @ 0xE0001000)
T5F00 000:654.366 - 6.544ms
T5F00 000:654.403 JLINK_IsHalted()
T5F00 000:655.087 - 0.697ms returns FALSE
T5F00 000:655.113 JLINK_HasError()
T5F00 000:664.395 JLINK_IsHalted()
T5F00 000:670.871   CPU_ReadMem(2 bytes @ 0x20000000)
T5F00 000:671.534 - 7.152ms returns TRUE
T5F00 000:671.561 JLINK_ReadReg(R15 (PC))
T5F00 000:671.577 - 0.022ms returns 0x20000000
T5F00 000:671.593 JLINK_ClrBPEx(BPHandle = 0x00000006)
T5F00 000:671.606 - 0.018ms returns 0x00
T5F00 000:671.621 JLINK_ReadReg(R0)
T5F00 000:671.633 - 0.018ms returns 0x00000000
T5F00 000:672.228 JLINK_HasError()
T5F00 000:672.249 JLINK_WriteReg(R0, 0x0002B000)
T5F00 000:672.264 - 0.020ms returns 0
T5F00 000:672.279 JLINK_WriteReg(R1, 0x00001000)
T5F00 000:672.291 - 0.018ms returns 0
T5F00 000:672.306 JLINK_WriteReg(R2, 0x000000FF)
T5F00 000:672.318 - 0.017ms returns 0
T5F00 000:672.333 JLINK_WriteReg(R3, 0x00000000)
T5F00 000:672.369 - 0.043ms returns 0
T5F00 000:672.385 JLINK_WriteReg(R4, 0x00000000)
T5F00 000:672.397 - 0.018ms returns 0
T5F00 000:672.412 JLINK_WriteReg(R5, 0x00000000)
T5F00 000:672.424 - 0.017ms returns 0
T5F00 000:672.439 JLINK_WriteReg(R6, 0x00000000)
T5F00 000:672.451 - 0.018ms returns 0
T5F00 000:672.465 JLINK_WriteReg(R7, 0x00000000)
T5F00 000:672.478 - 0.018ms returns 0
T5F00 000:672.493 JLINK_WriteReg(R8, 0x00000000)
T5F00 000:672.505 - 0.021ms returns 0
T5F00 000:672.523 JLINK_WriteReg(R9, 0x20000244)
T5F00 000:672.535 - 0.018ms returns 0
T5F00 000:672.550 JLINK_WriteReg(R10, 0x00000000)
T5F00 000:672.562 - 0.018ms returns 0
T5F00 000:672.576 JLINK_WriteReg(R11, 0x00000000)
T5F00 000:672.589 - 0.018ms returns 0
T5F00 000:672.604 JLINK_WriteReg(R12, 0x00000000)
T5F00 000:672.616 - 0.017ms returns 0
T5F00 000:672.630 JLINK_WriteReg(R13 (SP), 0x20002000)
T5F00 000:672.642 - 0.018ms returns 0
T5F00 000:672.657 JLINK_WriteReg(R14, 0x20000001)
T5F00 000:672.669 - 0.021ms returns 0
T5F00 000:672.689 JLINK_WriteReg(R15 (PC), 0x2000012E)
T5F00 000:672.702 - 0.018ms returns 0
T5F00 000:672.716 JLINK_WriteReg(XPSR, 0x01000000)
T5F00 000:672.729 - 0.018ms returns 0
T5F00 000:672.743 JLINK_WriteReg(MSP, 0x20002000)
T5F00 000:672.755 - 0.017ms returns 0
T5F00 000:672.770 JLINK_WriteReg(PSP, 0x20002000)
T5F00 000:672.782 - 0.018ms returns 0
T5F00 000:672.797 JLINK_WriteReg(CFBP, 0x00000000)
T5F00 000:672.809 - 0.018ms returns 0
T5F00 000:672.824 JLINK_SetBPEx(Addr = 0x20000000, Type = 0xFFFFFFF2)
T5F00 000:672.837 - 0.019ms returns 0x00000007
T5F00 000:672.852 JLINK_Go()
T5F00 000:672.873   CPU_ReadMem(4 bytes @ 0xE0001000)
T5F00 000:679.409 - 6.575ms
T5F00 000:679.441 JLINK_IsHalted()
T5F00 000:680.146 - 0.717ms returns FALSE
T5F00 000:680.171 JLINK_HasError()
T5F00 000:691.765 JLINK_IsHalted()
T5F00 000:698.203   CPU_ReadMem(2 bytes @ 0x20000000)
T5F00 000:698.883 - 7.131ms returns TRUE
T5F00 000:698.910 JLINK_ReadReg(R15 (PC))
T5F00 000:698.925 - 0.021ms returns 0x20000000
T5F00 000:698.941 JLINK_ClrBPEx(BPHandle = 0x00000007)
T5F00 000:698.954 - 0.018ms returns 0x00
T5F00 000:698.969 JLINK_ReadReg(R0)
T5F00 000:698.982 - 0.018ms returns 0x00000000
T5F00 000:699.606 JLINK_HasError()
T5F00 000:699.629 JLINK_WriteReg(R0, 0x0002C000)
T5F00 000:699.643 - 0.020ms returns 0
T5F00 000:699.658 JLINK_WriteReg(R1, 0x00001000)
T5F00 000:699.670 - 0.018ms returns 0
T5F00 000:699.685 JLINK_WriteReg(R2, 0x000000FF)
T5F00 000:699.697 - 0.017ms returns 0
T5F00 000:699.711 JLINK_WriteReg(R3, 0x00000000)
T5F00 000:699.723 - 0.017ms returns 0
T5F00 000:699.737 JLINK_WriteReg(R4, 0x00000000)
T5F00 000:699.749 - 0.017ms returns 0
T5F00 000:699.763 JLINK_WriteReg(R5, 0x00000000)
T5F00 000:699.775 - 0.017ms returns 0
T5F00 000:699.790 JLINK_WriteReg(R6, 0x00000000)
T5F00 000:699.802 - 0.017ms returns 0
T5F00 000:699.817 JLINK_WriteReg(R7, 0x00000000)
T5F00 000:699.829 - 0.017ms returns 0
T5F00 000:699.843 JLINK_WriteReg(R8, 0x00000000)
T5F00 000:699.855 - 0.017ms returns 0
T5F00 000:699.870 JLINK_WriteReg(R9, 0x20000244)
T5F00 000:699.882 - 0.017ms returns 0
T5F00 000:699.896 JLINK_WriteReg(R10, 0x00000000)
T5F00 000:699.908 - 0.017ms returns 0
T5F00 000:699.922 JLINK_WriteReg(R11, 0x00000000)
T5F00 000:699.934 - 0.017ms returns 0
T5F00 000:699.948 JLINK_WriteReg(R12, 0x00000000)
T5F00 000:699.960 - 0.017ms returns 0
T5F00 000:699.975 JLINK_WriteReg(R13 (SP), 0x20002000)
T5F00 000:699.987 - 0.018ms returns 0
T5F00 000:700.002 JLINK_WriteReg(R14, 0x20000001)
T5F00 000:700.014 - 0.018ms returns 0
T5F00 000:700.028 JLINK_WriteReg(R15 (PC), 0x2000012E)
T5F00 000:700.040 - 0.017ms returns 0
T5F00 000:700.055 JLINK_WriteReg(XPSR, 0x01000000)
T5F00 000:700.067 - 0.017ms returns 0
T5F00 000:700.081 JLINK_WriteReg(MSP, 0x20002000)
T5F00 000:700.093 - 0.017ms returns 0
T5F00 000:700.108 JLINK_WriteReg(PSP, 0x20002000)
T5F00 000:700.120 - 0.017ms returns 0
T5F00 000:700.134 JLINK_WriteReg(CFBP, 0x00000000)
T5F00 000:700.146 - 0.017ms returns 0
T5F00 000:700.161 JLINK_SetBPEx(Addr = 0x20000000, Type = 0xFFFFFFF2)
T5F00 000:700.173 - 0.018ms returns 0x00000008
T5F00 000:700.188 JLINK_Go()
T5F00 000:700.209   CPU_ReadMem(4 bytes @ 0xE0001000)
T5F00 000:706.714 - 6.540ms
T5F00 000:706.743 JLINK_IsHalted()
T5F00 000:707.407 - 0.677ms returns FALSE
T5F00 000:707.436 JLINK_HasError()
T5F00 000:714.690 JLINK_IsHalted()
T5F00 000:721.604   CPU_ReadMem(2 bytes @ 0x20000000)
T5F00 000:722.449 - 7.807ms returns TRUE
T5F00 000:722.546 JLINK_ReadReg(R15 (PC))
T5F00 000:722.604 - 0.080ms returns 0x20000000
T5F00 000:722.662 JLINK_ClrBPEx(BPHandle = 0x00000008)
T5F00 000:722.710 - 0.070ms returns 0x00
T5F00 000:722.766 JLINK_ReadReg(R0)
T5F00 000:722.812 - 0.067ms returns 0x00000000
T5F00 000:725.005 JLINK_HasError()
T5F00 000:725.087 JLINK_WriteReg(R0, 0x0002D000)
T5F00 000:725.142 - 0.077ms returns 0
T5F00 000:725.198 JLINK_WriteReg(R1, 0x00001000)
T5F00 000:725.244 - 0.067ms returns 0
T5F00 000:725.493 JLINK_WriteReg(R2, 0x000000FF)
T5F00 000:725.566 - 0.104ms returns 0
T5F00 000:725.633 JLINK_WriteReg(R3, 0x00000000)
T5F00 000:725.681 - 0.070ms returns 0
T5F00 000:725.737 JLINK_WriteReg(R4, 0x00000000)
T5F00 000:725.784 - 0.068ms returns 0
T5F00 000:725.840 JLINK_WriteReg(R5, 0x00000000)
T5F00 000:725.885 - 0.067ms returns 0
T5F00 000:725.940 JLINK_WriteReg(R6, 0x00000000)
T5F00 000:725.986 - 0.067ms returns 0
T5F00 000:726.040 JLINK_WriteReg(R7, 0x00000000)
T5F00 000:726.085 - 0.067ms returns 0
T5F00 000:726.140 JLINK_WriteReg(R8, 0x00000000)
T5F00 000:726.185 - 0.067ms returns 0
T5F00 000:726.239 JLINK_WriteReg(R9, 0x20000244)
T5F00 000:726.285 - 0.068ms returns 0
T5F00 000:726.340 JLINK_WriteReg(R10, 0x00000000)
T5F00 000:726.403 - 0.084ms returns 0
T5F00 000:726.458 JLINK_WriteReg(R11, 0x00000000)
T5F00 000:726.503 - 0.067ms returns 0
T5F00 000:726.557 JLINK_WriteReg(R12, 0x00000000)
T5F00 000:726.602 - 0.066ms returns 0
T5F00 000:726.656 JLINK_WriteReg(R13 (SP), 0x20002000)
T5F00 000:726.702 - 0.068ms returns 0
T5F00 000:726.756 JLINK_WriteReg(R14, 0x20000001)
T5F00 000:726.801 - 0.066ms returns 0
T5F00 000:726.855 JLINK_WriteReg(R15 (PC), 0x2000012E)
T5F00 000:726.901 - 0.067ms returns 0
T5F00 000:726.955 JLINK_WriteReg(XPSR, 0x01000000)
T5F00 000:727.000 - 0.066ms returns 0
T5F00 000:727.054 JLINK_WriteReg(MSP, 0x20002000)
T5F00 000:727.100 - 0.067ms returns 0
T5F00 000:727.156 JLINK_WriteReg(PSP, 0x20002000)
T5F00 000:727.201 - 0.067ms returns 0
T5F00 000:727.255 JLINK_WriteReg(CFBP, 0x00000000)
T5F00 000:727.300 - 0.066ms returns 0
T5F00 000:727.355 JLINK_SetBPEx(Addr = 0x20000000, Type = 0xFFFFFFF2)
T5F00 000:727.426 - 0.093ms returns 0x00000009
T5F00 000:727.483 JLINK_Go()
T5F00 000:727.558   CPU_ReadMem(4 bytes @ 0xE0001000)
T5F00 000:734.484 - 7.035ms
T5F00 000:734.572 JLINK_IsHalted()
T5F00 000:735.263 - 0.714ms returns FALSE
T5F00 000:735.315 JLINK_HasError()
T5F00 000:740.217 JLINK_IsHalted()
T5F00 000:746.652   CPU_ReadMem(2 bytes @ 0x20000000)
T5F00 000:747.306 - 7.101ms returns TRUE
T5F00 000:747.332 JLINK_ReadReg(R15 (PC))
T5F00 000:747.348 - 0.021ms returns 0x20000000
T5F00 000:747.363 JLINK_ClrBPEx(BPHandle = 0x00000009)
T5F00 000:747.375 - 0.018ms returns 0x00
T5F00 000:747.390 JLINK_ReadReg(R0)
T5F00 000:747.402 - 0.018ms returns 0x00000000
T5F00 000:747.785 JLINK_HasError()
T5F00 000:747.805 JLINK_WriteReg(R0, 0x00000001)
T5F00 000:747.819 - 0.019ms returns 0
T5F00 000:747.833 JLINK_WriteReg(R1, 0x00001000)
T5F00 000:747.845 - 0.017ms returns 0
T5F00 000:747.859 JLINK_WriteReg(R2, 0x000000FF)
T5F00 000:747.871 - 0.017ms returns 0
T5F00 000:747.885 JLINK_WriteReg(R3, 0x00000000)
T5F00 000:747.896 - 0.017ms returns 0
T5F00 000:747.910 JLINK_WriteReg(R4, 0x00000000)
T5F00 000:747.922 - 0.017ms returns 0
T5F00 000:747.936 JLINK_WriteReg(R5, 0x00000000)
T5F00 000:747.947 - 0.017ms returns 0
T5F00 000:747.961 JLINK_WriteReg(R6, 0x00000000)
T5F00 000:747.973 - 0.017ms returns 0
T5F00 000:747.987 JLINK_WriteReg(R7, 0x00000000)
T5F00 000:747.998 - 0.016ms returns 0
T5F00 000:748.012 JLINK_WriteReg(R8, 0x00000000)
T5F00 000:748.024 - 0.017ms returns 0
T5F00 000:748.038 JLINK_WriteReg(R9, 0x20000244)
T5F00 000:748.049 - 0.017ms returns 0
T5F00 000:748.063 JLINK_WriteReg(R10, 0x00000000)
T5F00 000:748.075 - 0.017ms returns 0
T5F00 000:748.088 JLINK_WriteReg(R11, 0x00000000)
T5F00 000:748.100 - 0.017ms returns 0
T5F00 000:748.114 JLINK_WriteReg(R12, 0x00000000)
T5F00 000:748.125 - 0.016ms returns 0
T5F00 000:748.140 JLINK_WriteReg(R13 (SP), 0x20002000)
T5F00 000:748.152 - 0.017ms returns 0
T5F00 000:748.166 JLINK_WriteReg(R14, 0x20000001)
T5F00 000:748.177 - 0.017ms returns 0
T5F00 000:748.191 JLINK_WriteReg(R15 (PC), 0x200000A2)
T5F00 000:748.203 - 0.017ms returns 0
T5F00 000:748.217 JLINK_WriteReg(XPSR, 0x01000000)
T5F00 000:748.229 - 0.017ms returns 0
T5F00 000:748.243 JLINK_WriteReg(MSP, 0x20002000)
T5F00 000:748.254 - 0.017ms returns 0
T5F00 000:748.287 JLINK_WriteReg(PSP, 0x20002000)
T5F00 000:748.301 - 0.020ms returns 0
T5F00 000:748.315 JLINK_WriteReg(CFBP, 0x00000000)
T5F00 000:748.334 - 0.024ms returns 0
T5F00 000:748.349 JLINK_SetBPEx(Addr = 0x20000000, Type = 0xFFFFFFF2)
T5F00 000:748.361 - 0.018ms returns 0x0000000A
T5F00 000:748.376 JLINK_Go()
T5F00 000:748.395   CPU_ReadMem(4 bytes @ 0xE0001000)
T5F00 000:754.841 - 6.483ms
T5F00 000:754.872 JLINK_IsHalted()
T5F00 000:761.391   CPU_ReadMem(2 bytes @ 0x20000000)
T5F00 000:762.072 - 7.212ms returns TRUE
T5F00 000:762.101 JLINK_ReadReg(R15 (PC))
T5F00 000:762.117 - 0.021ms returns 0x20000000
T5F00 000:762.223 JLINK_ClrBPEx(BPHandle = 0x0000000A)
T5F00 000:762.245 - 0.028ms returns 0x00
T5F00 000:762.261 JLINK_ReadReg(R0)
T5F00 000:762.274 - 0.018ms returns 0x00000000
T5F00 000:823.972 JLINK_WriteMem(0x20000000, 0x248 Bytes, ...)
T5F00 000:823.994   Data:  00 BE 0A E0 0D 78 2D 06 68 40 08 24 40 00 00 D3 ...
T5F00 000:824.024   CPU_WriteMem(584 bytes @ 0x20000000)
T5F00 000:832.075 - 8.119ms returns 0x248
T5F00 000:832.134 JLINK_HasError()
T5F00 000:832.153 JLINK_WriteReg(R0, 0x00000000)
T5F00 000:832.168 - 0.021ms returns 0
T5F00 000:832.183 JLINK_WriteReg(R1, 0x03D09000)
T5F00 000:832.195 - 0.017ms returns 0
T5F00 000:832.209 JLINK_WriteReg(R2, 0x00000002)
T5F00 000:832.220 - 0.017ms returns 0
T5F00 000:832.234 JLINK_WriteReg(R3, 0x00000000)
T5F00 000:832.246 - 0.017ms returns 0
T5F00 000:832.259 JLINK_WriteReg(R4, 0x00000000)
T5F00 000:832.271 - 0.017ms returns 0
T5F00 000:832.285 JLINK_WriteReg(R5, 0x00000000)
T5F00 000:832.296 - 0.016ms returns 0
T5F00 000:832.310 JLINK_WriteReg(R6, 0x00000000)
T5F00 000:832.322 - 0.018ms returns 0
T5F00 000:832.337 JLINK_WriteReg(R7, 0x00000000)
T5F00 000:832.349 - 0.017ms returns 0
T5F00 000:832.363 JLINK_WriteReg(R8, 0x00000000)
T5F00 000:832.374 - 0.017ms returns 0
T5F00 000:832.388 JLINK_WriteReg(R9, 0x20000244)
T5F00 000:832.400 - 0.017ms returns 0
T5F00 000:832.414 JLINK_WriteReg(R10, 0x00000000)
T5F00 000:832.425 - 0.017ms returns 0
T5F00 000:832.439 JLINK_WriteReg(R11, 0x00000000)
T5F00 000:832.451 - 0.017ms returns 0
T5F00 000:832.465 JLINK_WriteReg(R12, 0x00000000)
T5F00 000:832.476 - 0.017ms returns 0
T5F00 000:832.490 JLINK_WriteReg(R13 (SP), 0x20002000)
T5F00 000:832.502 - 0.017ms returns 0
T5F00 000:832.516 JLINK_WriteReg(R14, 0x20000001)
T5F00 000:832.528 - 0.017ms returns 0
T5F00 000:832.542 JLINK_WriteReg(R15 (PC), 0x20000048)
T5F00 000:832.554 - 0.017ms returns 0
T5F00 000:832.568 JLINK_WriteReg(XPSR, 0x01000000)
T5F00 000:832.579 - 0.017ms returns 0
T5F00 000:832.593 JLINK_WriteReg(MSP, 0x20002000)
T5F00 000:832.605 - 0.016ms returns 0
T5F00 000:832.619 JLINK_WriteReg(PSP, 0x20002000)
T5F00 000:832.630 - 0.017ms returns 0
T5F00 000:832.644 JLINK_WriteReg(CFBP, 0x00000000)
T5F00 000:832.656 - 0.017ms returns 0
T5F00 000:832.670 JLINK_SetBPEx(Addr = 0x20000000, Type = 0xFFFFFFF2)
T5F00 000:832.687   CPU_ReadMem(2 bytes @ 0x20000000)
T5F00 000:833.356 - 0.698ms returns 0x0000000B
T5F00 000:833.381 JLINK_Go()
T5F00 000:833.397   CPU_WriteMem(2 bytes @ 0x20000000)
T5F00 000:834.037   CPU_ReadMem(4 bytes @ 0xE0001000)
T5F00 000:840.520 - 7.155ms
T5F00 000:840.552 JLINK_IsHalted()
T5F00 000:846.985   CPU_ReadMem(2 bytes @ 0x20000000)
T5F00 000:847.661 - 7.121ms returns TRUE
T5F00 000:847.689 JLINK_ReadReg(R15 (PC))
T5F00 000:847.705 - 0.021ms returns 0x20000000
T5F00 000:847.720 JLINK_ClrBPEx(BPHandle = 0x0000000B)
T5F00 000:847.733 - 0.018ms returns 0x00
T5F00 000:847.749 JLINK_ReadReg(R0)
T5F00 000:847.761 - 0.017ms returns 0x00000000
T5F00 000:848.218 JLINK_WriteMem(0x20000248, 0x1B8 Bytes, ...)
T5F00 000:848.236   Data:  80 62 00 20 FD 62 02 00 05 63 02 00 07 63 02 00 ...
T5F00 000:848.279   CPU_WriteMem(440 bytes @ 0x20000248)
T5F00 000:854.573 - 6.372ms returns 0x1B8
T5F00 000:854.604 JLINK_WriteMem(0x20000400, 0x400 Bytes, ...)
T5F00 000:854.617   Data:  00 00 00 00 00 00 00 00 00 00 00 00 00 00 00 00 ...
T5F00 000:854.645   CPU_WriteMem(1024 bytes @ 0x20000400)
T5F00 000:868.462 - 13.876ms returns 0x400
T5F00 000:868.494 JLINK_WriteMem(0x20000800, 0x400 Bytes, ...)
T5F00 000:868.510   Data:  08 D1 BA F1 02 0F 1D D0 02 21 40 46 03 F0 24 FD ...
T5F00 000:868.545   CPU_WriteMem(1024 bytes @ 0x20000800)
T5F00 000:882.336 - 13.859ms returns 0x400
T5F00 000:882.374 JLINK_WriteMem(0x20000C00, 0x400 Bytes, ...)
T5F00 000:882.390   Data:  22 48 74 38 01 68 41 F4 70 01 01 60 BF F3 4F 8F ...
T5F00 000:882.422   CPU_WriteMem(1024 bytes @ 0x20000C00)
T5F00 000:896.242 - 13.897ms returns 0x400
T5F00 000:896.301 JLINK_WriteMem(0x20001000, 0x248 Bytes, ...)
T5F00 000:896.326   Data:  08 46 70 47 10 B5 82 68 C3 68 9A 1A 83 88 9A 42 ...
T5F00 000:896.390   CPU_WriteMem(584 bytes @ 0x20001000)
T5F00 000:904.547 - 8.284ms returns 0x248
T5F00 000:904.634 JLINK_HasError()
T5F00 000:904.830 JLINK_WriteReg(R0, 0x00026000)
T5F00 000:904.900 - 0.089ms returns 0
T5F00 000:904.949 JLINK_WriteReg(R1, 0x00001000)
T5F00 000:904.987 - 0.055ms returns 0
T5F00 000:905.031 JLINK_WriteReg(R2, 0x20000248)
T5F00 000:905.069 - 0.055ms returns 0
T5F00 000:905.112 JLINK_WriteReg(R3, 0x00000000)
T5F00 000:905.148 - 0.053ms returns 0
T5F00 000:905.192 JLINK_WriteReg(R4, 0x00000000)
T5F00 000:905.227 - 0.052ms returns 0
T5F00 000:905.270 JLINK_WriteReg(R5, 0x00000000)
T5F00 000:905.306 - 0.053ms returns 0
T5F00 000:905.349 JLINK_WriteReg(R6, 0x00000000)
T5F00 000:905.385 - 0.053ms returns 0
T5F00 000:905.436 JLINK_WriteReg(R7, 0x00000000)
T5F00 000:905.473 - 0.055ms returns 0
T5F00 000:905.517 JLINK_WriteReg(R8, 0x00000000)
T5F00 000:905.554 - 0.053ms returns 0
T5F00 000:905.597 JLINK_WriteReg(R9, 0x20000244)
T5F00 000:905.633 - 0.054ms returns 0
T5F00 000:905.677 JLINK_WriteReg(R10, 0x00000000)
T5F00 000:905.714 - 0.054ms returns 0
T5F00 000:905.758 JLINK_WriteReg(R11, 0x00000000)
T5F00 000:905.793 - 0.053ms returns 0
T5F00 000:905.837 JLINK_WriteReg(R12, 0x00000000)
T5F00 000:905.872 - 0.054ms returns 0
T5F00 000:905.917 JLINK_WriteReg(R13 (SP), 0x20002000)
T5F00 000:905.955 - 0.055ms returns 0
T5F00 000:905.999 JLINK_WriteReg(R14, 0x20000001)
T5F00 000:906.034 - 0.053ms returns 0
T5F00 000:906.078 JLINK_WriteReg(R15 (PC), 0x2000016A)
T5F00 000:906.114 - 0.053ms returns 0
T5F00 000:906.157 JLINK_WriteReg(XPSR, 0x01000000)
T5F00 000:906.193 - 0.053ms returns 0
T5F00 000:906.236 JLINK_WriteReg(MSP, 0x20002000)
T5F00 000:906.272 - 0.053ms returns 0
T5F00 000:906.315 JLINK_WriteReg(PSP, 0x20002000)
T5F00 000:906.351 - 0.053ms returns 0
T5F00 000:906.395 JLINK_WriteReg(CFBP, 0x00000000)
T5F00 000:906.450 - 0.074ms returns 0
T5F00 000:906.496 JLINK_SetBPEx(Addr = 0x20000000, Type = 0xFFFFFFF2)
T5F00 000:906.538 - 0.059ms returns 0x0000000C
T5F00 000:906.583 JLINK_Go()
T5F00 000:906.641   CPU_ReadMem(4 bytes @ 0xE0001000)
T5F00 000:913.528 - 6.984ms
T5F00 000:913.605 JLINK_IsHalted()
T5F00 000:914.381 - 0.820ms returns FALSE
T5F00 000:914.462 JLINK_HasError()
T5F00 000:922.727 JLINK_IsHalted()
T5F00 000:923.416 - 0.700ms returns FALSE
T5F00 000:923.439 JLINK_HasError()
T5F00 000:925.488 JLINK_IsHalted()
T5F00 000:926.142 - 0.668ms returns FALSE
T5F00 000:926.169 JLINK_HasError()
T5F00 000:933.479 JLINK_IsHalted()
T5F00 000:934.193 - 0.724ms returns FALSE
T5F00 000:934.215 JLINK_HasError()
T5F00 000:935.461 JLINK_IsHalted()
T5F00 000:936.138 - 0.687ms returns FALSE
T5F00 000:936.161 JLINK_HasError()
T5F00 000:937.458 JLINK_IsHalted()
T5F00 000:938.202 - 0.781ms returns FALSE
T5F00 000:938.271 JLINK_HasError()
T5F00 000:940.332 JLINK_IsHalted()
T5F00 000:940.992 - 0.669ms returns FALSE
T5F00 000:941.013 JLINK_HasError()
T5F00 000:943.071 JLINK_IsHalted()
T5F00 000:943.742 - 0.682ms returns FALSE
T5F00 000:943.764 JLINK_HasError()
T5F00 000:945.072 JLINK_IsHalted()
T5F00 000:945.695 - 0.638ms returns FALSE
T5F00 000:945.724 JLINK_HasError()
T5F00 000:946.983 JLINK_IsHalted()
T5F00 000:947.690 - 0.716ms returns FALSE
T5F00 000:947.712 JLINK_HasError()
T5F00 000:948.908 JLINK_IsHalted()
T5F00 000:949.628 - 0.730ms returns FALSE
T5F00 000:949.650 JLINK_HasError()
T5F00 000:951.662 JLINK_IsHalted()
T5F00 000:952.290 - 0.638ms returns FALSE
T5F00 000:952.316 JLINK_HasError()
T5F00 000:954.022 JLINK_IsHalted()
T5F00 000:954.694 - 0.681ms returns FALSE
T5F00 000:954.715 JLINK_HasError()
T5F00 000:955.992 JLINK_IsHalted()
T5F00 000:956.658 - 0.676ms returns FALSE
T5F00 000:956.682 JLINK_HasError()
T5F00 000:958.623 JLINK_IsHalted()
T5F00 000:959.269 - 0.658ms returns FALSE
T5F00 000:959.294 JLINK_HasError()
T5F00 000:960.544 JLINK_IsHalted()
T5F00 000:961.188 - 0.656ms returns FALSE
T5F00 000:961.212 JLINK_HasError()
T5F00 000:963.268 JLINK_IsHalted()
T5F00 000:963.938 - 0.680ms returns FALSE
T5F00 000:963.960 JLINK_HasError()
T5F00 000:965.259 JLINK_IsHalted()
T5F00 000:966.005 - 0.760ms returns FALSE
T5F00 000:966.032 JLINK_HasError()
T5F00 000:967.256 JLINK_IsHalted()
T5F00 000:967.937 - 0.691ms returns FALSE
T5F00 000:967.959 JLINK_HasError()
T5F00 000:969.172 JLINK_IsHalted()
T5F00 000:969.801 - 0.641ms returns FALSE
T5F00 000:969.826 JLINK_HasError()
T5F00 000:971.785 JLINK_IsHalted()
T5F00 000:972.512 - 0.737ms returns FALSE
T5F00 000:972.534 JLINK_HasError()
T5F00 000:973.771 JLINK_IsHalted()
T5F00 000:974.436 - 0.674ms returns FALSE
T5F00 000:974.458 JLINK_HasError()
T5F00 000:975.765 JLINK_IsHalted()
T5F00 000:976.413 - 0.658ms returns FALSE
T5F00 000:976.435 JLINK_HasError()
T5F00 000:978.371 JLINK_IsHalted()
T5F00 000:978.962 - 0.601ms returns FALSE
T5F00 000:978.984 JLINK_HasError()
T5F00 000:980.346 JLINK_IsHalted()
T5F00 000:980.938 - 0.603ms returns FALSE
T5F00 000:980.961 JLINK_HasError()
T5F00 000:982.404 JLINK_IsHalted()
T5F00 000:988.822   CPU_ReadMem(2 bytes @ 0x20000000)
T5F00 000:989.415 - 7.022ms returns TRUE
T5F00 000:989.440 JLINK_ReadReg(R15 (PC))
T5F00 000:989.455 - 0.022ms returns 0x20000000
T5F00 000:989.471 JLINK_ClrBPEx(BPHandle = 0x0000000C)
T5F00 000:989.485 - 0.019ms returns 0x00
T5F00 000:989.501 JLINK_ReadReg(R0)
T5F00 000:989.514 - 0.019ms returns 0x00000000
T5F00 000:990.317 JLINK_WriteMem(0x20000248, 0x1B8 Bytes, ...)
T5F00 000:990.339   Data:  08 39 FF F7 C0 FE 30 B9 05 49 01 22 08 39 04 48 ...
T5F00 000:990.369   CPU_WriteMem(440 bytes @ 0x20000248)
T5F00 000:996.577 - 6.278ms returns 0x1B8
T5F00 000:996.612 JLINK_WriteMem(0x20000400, 0x400 Bytes, ...)
T5F00 000:996.630   Data:  04 46 09 D0 00 20 28 60 34 B1 20 68 20 B1 A0 79 ...
T5F00 000:996.662   CPU_WriteMem(1024 bytes @ 0x20000400)
T5F00 001:010.460 - 13.874ms returns 0x400
T5F00 001:010.508 JLINK_WriteMem(0x20000800, 0x400 Bytes, ...)
T5F00 001:010.524   Data:  4A 52 A4 F8 4E 52 84 F8 50 52 A0 79 01 26 08 B1 ...
T5F00 001:010.556   CPU_WriteMem(1024 bytes @ 0x20000800)
T5F00 001:024.334 - 13.845ms returns 0x400
T5F00 001:024.371 JLINK_WriteMem(0x20000C00, 0x400 Bytes, ...)
T5F00 001:024.384   Data:  01 20 8D F8 12 00 4F F6 59 60 AD F8 10 00 A2 1C ...
T5F00 001:024.411   CPU_WriteMem(1024 bytes @ 0x20000C00)
T5F00 001:038.121 - 13.765ms returns 0x400
T5F00 001:038.152 JLINK_WriteMem(0x20001000, 0x248 Bytes, ...)
T5F00 001:038.165   Data:  65 6E 64 20 61 20 72 65 73 70 6F 6E 73 65 20 74 ...
T5F00 001:038.190   CPU_WriteMem(584 bytes @ 0x20001000)
T5F00 001:046.241 - 8.102ms returns 0x248
T5F00 001:046.275 JLINK_HasError()
T5F00 001:046.293 JLINK_WriteReg(R0, 0x00027000)
T5F00 001:046.310 - 0.024ms returns 0
T5F00 001:046.329 JLINK_WriteReg(R1, 0x00001000)
T5F00 001:046.342 - 0.019ms returns 0
T5F00 001:046.360 JLINK_WriteReg(R2, 0x20000248)
T5F00 001:046.373 - 0.019ms returns 0
T5F00 001:046.389 JLINK_WriteReg(R3, 0x00000000)
T5F00 001:046.401 - 0.019ms returns 0
T5F00 001:046.419 JLINK_WriteReg(R4, 0x00000000)
T5F00 001:046.432 - 0.019ms returns 0
T5F00 001:046.447 JLINK_WriteReg(R5, 0x00000000)
T5F00 001:046.461 - 0.019ms returns 0
T5F00 001:046.478 JLINK_WriteReg(R6, 0x00000000)
T5F00 001:046.491 - 0.019ms returns 0
T5F00 001:046.506 JLINK_WriteReg(R7, 0x00000000)
T5F00 001:046.519 - 0.019ms returns 0
T5F00 001:046.537 JLINK_WriteReg(R8, 0x00000000)
T5F00 001:046.551 - 0.019ms returns 0
T5F00 001:046.566 JLINK_WriteReg(R9, 0x20000244)
T5F00 001:046.579 - 0.019ms returns 0
T5F00 001:046.600 JLINK_WriteReg(R10, 0x00000000)
T5F00 001:046.616 - 0.022ms returns 0
T5F00 001:046.631 JLINK_WriteReg(R11, 0x00000000)
T5F00 001:046.644 - 0.019ms returns 0
T5F00 001:046.662 JLINK_WriteReg(R12, 0x00000000)
T5F00 001:046.675 - 0.019ms returns 0
T5F00 001:046.690 JLINK_WriteReg(R13 (SP), 0x20002000)
T5F00 001:046.704 - 0.019ms returns 0
T5F00 001:046.721 JLINK_WriteReg(R14, 0x20000001)
T5F00 001:046.734 - 0.019ms returns 0
T5F00 001:046.750 JLINK_WriteReg(R15 (PC), 0x2000016A)
T5F00 001:046.763 - 0.019ms returns 0
T5F00 001:046.780 JLINK_WriteReg(XPSR, 0x01000000)
T5F00 001:046.793 - 0.019ms returns 0
T5F00 001:046.809 JLINK_WriteReg(MSP, 0x20002000)
T5F00 001:046.822 - 0.019ms returns 0
T5F00 001:046.840 JLINK_WriteReg(PSP, 0x20002000)
T5F00 001:046.853 - 0.019ms returns 0
T5F00 001:046.869 JLINK_WriteReg(CFBP, 0x00000000)
T5F00 001:046.882 - 0.019ms returns 0
T5F00 001:046.899 JLINK_SetBPEx(Addr = 0x20000000, Type = 0xFFFFFFF2)
T5F00 001:046.914 - 0.021ms returns 0x0000000D
T5F00 001:047.282 JLINK_Go()
T5F00 001:047.315   CPU_ReadMem(4 bytes @ 0xE0001000)
T5F00 001:053.754 - 6.495ms
T5F00 001:053.791 JLINK_IsHalted()
T5F00 001:054.414 - 0.637ms returns FALSE
T5F00 001:054.441 JLINK_HasError()
T5F00 001:058.115 JLINK_IsHalted()
T5F00 001:058.808 - 0.704ms returns FALSE
T5F00 001:058.833 JLINK_HasError()
T5F00 001:060.130 JLINK_IsHalted()
T5F00 001:060.806 - 0.687ms returns FALSE
T5F00 001:060.830 JLINK_HasError()
T5F00 001:062.101 JLINK_IsHalted()
T5F00 001:062.764 - 0.675ms returns FALSE
T5F00 001:062.789 JLINK_HasError()
T5F00 001:064.018 JLINK_IsHalted()
T5F00 001:064.669 - 0.662ms returns FALSE
T5F00 001:064.693 JLINK_HasError()
T5F00 001:066.081 JLINK_IsHalted()
T5F00 001:066.749 - 0.680ms returns FALSE
T5F00 001:066.774 JLINK_HasError()
T5F00 001:068.590 JLINK_IsHalted()
T5F00 001:069.232 - 0.670ms returns FALSE
